T0828 000:069.338   SEGGER J-Link V6.70c Log File
T0828 000:069.483   DLL Compiled: Apr  7 2020 16:25:12
T0828 000:069.491   Logging started @ 2020-06-23 06:26
T0828 000:069.501 JLINK_SetWarnOutHandler(...)
T0828 000:069.510 - 0.012ms
T0828 000:069.519 JLINK_OpenEx(...)
T0828 000:071.456   Firmware: J-Link V10 compiled Mar 19 2020 11:10:39
T0828 000:071.647   Decompressing FW timestamp took 154 us
T0828 000:077.111   Hardware: V10.10
T0828 000:077.346   S/N: 260106173
T0828 000:077.365   OEM: SEGGER
T0828 000:077.380   Feature(s): FlashBP, GDB, FlashDL, JFlash, RDI
T0828 000:082.943   TELNET listener socket opened on port 19021
T0828 000:083.040   WEBSRV Starting webserver
T0828 000:083.220   WEBSRV Webserver running on local port 19080
T0828 000:083.241 - 13.727ms returns "O.K."
T0828 000:083.257 JLINK_GetEmuCaps()
T0828 000:083.271 - 0.019ms returns 0xB9FF7BBF
T0828 000:083.285 JLINK_TIF_GetAvailable(...)
T0828 000:084.079 - 0.803ms
T0828 000:084.096 JLINK_SetErrorOutHandler(...)
T0828 000:084.103 - 0.010ms
T0828 000:084.116 JLINK_ExecCommand("ProjectFile = "D:\stm32f4xx-ucosii\MDK-ARM\JLinkSettings.ini"", ...). 
T0828 000:097.896   Ref file found at: E:\Keil_v5\ARM\Segger\JLinkDevices.ref
T0828 000:098.189   XML referenced by ref file: E:\SEGGER\JLink\JLinkDevices.xml
T0828 000:099.255   E:\SEGGER\JLink\JLinkDevices.xml evaluated successfully.
T0828 000:117.864 - 33.773ms returns 0x00
T0828 000:117.945 JLINK_ExecCommand("Device = STM32F407ZGTx", ...). 
T0828 000:118.483   Device "STM32F407ZG" selected.
T0828 000:120.177 - 2.236ms returns 0x00
T0828 000:120.207 JLINK_ExecCommand("DisableConnectionTimeout", ...). 
T0828 000:120.224 - 0.009ms returns 0x01
T0828 000:120.237 JLINK_GetHardwareVersion()
T0828 000:120.247 - 0.015ms returns 0x18A88
T0828 000:120.259 JLINK_GetDLLVersion()  returns 67003
T0828 000:120.277 JLINK_GetFirmwareString(...)
T0828 000:120.284 - 0.010ms
T0828 000:120.348 JLINK_GetDLLVersion()  returns 67003
T0828 000:120.357 JLINK_GetCompileDateTime()
T0828 000:120.364 - 0.010ms
T0828 000:120.377 JLINK_GetFirmwareString(...)
T0828 000:120.384 - 0.010ms
T0828 000:120.395 JLINK_GetHardwareVersion()
T0828 000:120.403 - 0.011ms returns 0x18A88
T0828 000:120.457 JLINK_TIF_Select(JLINKARM_TIF_SWD)
T0828 000:123.292 - 2.852ms returns 0x00
T0828 000:123.330 JLINK_SetSpeed(5000)
T0828 000:124.013 - 0.696ms
T0828 000:124.035 JLINK_GetId()
T0828 000:128.383   Found SW-DP with ID 0x2BA01477
T0828 000:172.705   Found SW-DP with ID 0x2BA01477
T0828 000:179.195   DPIDR: 0x2BA01477
T0828 000:179.617   Scanning AP map to find all available APs
T0828 000:181.955   AP[1]: Stopped AP scan as end of AP map has been reached
T0828 000:181.984   AP[0]: AHB-AP (IDR: 0x24770011)
T0828 000:181.998   Iterating through AP map to find AHB-AP to use
T0828 000:184.592   AP[0]: Core found
T0828 000:184.615   AP[0]: AHB-AP ROM base: 0xE00FF000
T0828 000:185.722   CPUID register: 0x410FC241. Implementer code: 0x41 (ARM)
T0828 000:185.746   Found Cortex-M4 r0p1, Little endian.
T0828 000:289.337    -- Max. mem block: 0x00004568
T0828 000:289.395    -- CPU_ReadMem(4 bytes @ 0xE000EDF0)
T0828 000:291.244    -- CPU_WriteMem(4 bytes @ 0xE000EDF0)
T0828 000:291.838    -- CPU_ReadMem(4 bytes @ 0xE0002000)
T0828 000:292.679   FPUnit: 6 code (BP) slots and 2 literal slots
T0828 000:292.723    -- CPU_ReadMem(4 bytes @ 0xE000EDFC)
T0828 000:294.032    -- CPU_WriteMem(4 bytes @ 0xE000EDFC)
T0828 000:295.205    -- CPU_ReadMem(4 bytes @ 0xE0001000)
T0828 000:296.291    -- CPU_WriteMem(4 bytes @ 0xE0001000)
T0828 000:297.819    -- CPU_ReadMem(4 bytes @ 0xE000ED88)
T0828 000:299.017    -- CPU_WriteMem(4 bytes @ 0xE000ED88)
T0828 000:299.786    -- CPU_ReadMem(4 bytes @ 0xE000ED88)
T0828 000:301.375    -- CPU_WriteMem(4 bytes @ 0xE000ED88)
T0828 000:302.619   CoreSight components:
T0828 000:302.662   ROMTbl[0] @ E00FF000
T0828 000:302.676    -- CPU_ReadMem(64 bytes @ 0xE00FF000)
T0828 000:305.116    -- CPU_ReadMem(32 bytes @ 0xE000EFE0)
T0828 000:306.730   ROMTbl[0][0]: E000E000, CID: B105E00D, PID: 000BB00C SCS-M7
T0828 000:306.830    -- CPU_ReadMem(32 bytes @ 0xE0001FE0)
T0828 000:307.714   ROMTbl[0][1]: E0001000, CID: B105E00D, PID: 003BB002 DWT
T0828 000:307.758    -- CPU_ReadMem(32 bytes @ 0xE0002FE0)
T0828 000:308.851   ROMTbl[0][2]: E0002000, CID: B105E00D, PID: 002BB003 FPB
T0828 000:308.875    -- CPU_ReadMem(32 bytes @ 0xE0000FE0)
T0828 000:310.083   ROMTbl[0][3]: E0000000, CID: B105E00D, PID: 003BB001 ITM
T0828 000:310.260    -- CPU_ReadMem(32 bytes @ 0xE0040FE0)
T0828 000:311.989   ROMTbl[0][4]: E0040000, CID: B105900D, PID: 000BB9A1 TPIU
T0828 000:312.337    -- CPU_ReadMem(32 bytes @ 0xE0041FE0)
T0828 000:313.965   ROMTbl[0][5]: E0041000, CID: B105900D, PID: 000BB925 ETM
T0828 000:315.257 - 191.252ms   returns 0x2BA01477
T0828 000:315.314 JLINK_GetDLLVersion()  returns 67003
T0828 000:315.447 JLINK_CORE_GetFound()
T0828 000:315.464 - 0.020ms returns 0xE0000FF
T0828 000:315.473 JLINK_GetDebugInfo(0x100 = JLINKARM_ROM_TABLE_ADDR_INDEX)
T0828 000:315.482   Value=0xE00FF000
T0828 000:315.504 - 0.034ms returns 0x00
T0828 000:315.566 JLINK_GetDebugInfo(0x100 = JLINKARM_ROM_TABLE_ADDR_INDEX)
T0828 000:315.573   Value=0xE00FF000
T0828 000:315.583 - 0.019ms returns 0x00
T0828 000:315.590 JLINK_GetDebugInfo(0x101 = JLINKARM_DEBUG_INFO_ETM_ADDR_INDEX)
T0828 000:315.596   Value=0xE0041000
T0828 000:315.605 - 0.018ms returns 0x00
T0828 000:315.619   JLINK_ReadMemEx(0xE0041FD0, 0x0020 Bytes, ..., Flags = 0x02000004)
T0828 000:315.643    -- CPU_ReadMem(32 bytes @ 0xE0041FD0)
T0828 000:316.738   Data:  04 00 00 00 00 00 00 00 00 00 00 00 00 00 00 00 ...
T0828 000:316.774 - 1.160ms returns 0x20
T0828 000:316.787 JLINK_GetDebugInfo(0x102 = JLINKARM_DEBUG_INFO_MTB_ADDR_INDEX)
T0828 000:316.794   Value=0x00000000
T0828 000:316.804 - 0.020ms returns 0x00
T0828 000:316.811 JLINK_GetDebugInfo(0x103 = JLINKARM_DEBUG_INFO_TPIU_ADDR_INDEX)
T0828 000:316.817   Value=0xE0040000
T0828 000:316.826 - 0.018ms returns 0x00
T0828 000:316.834 JLINK_GetDebugInfo(0x104 = JLINKARM_DEBUG_INFO_ITM_ADDR_INDEX)
T0828 000:316.840   Value=0xE0000000
T0828 000:316.849 - 0.018ms returns 0x00
T0828 000:316.856 JLINK_GetDebugInfo(0x105 = JLINKARM_DEBUG_INFO_DWT_ADDR_INDEX)
T0828 000:316.863   Value=0xE0001000
T0828 000:316.872 - 0.018ms returns 0x00
T0828 000:316.879 JLINK_GetDebugInfo(0x106 = JLINKARM_DEBUG_INFO_FPB_ADDR_INDEX)
T0828 000:316.885   Value=0xE0002000
T0828 000:316.894 - 0.018ms returns 0x00
T0828 000:316.901 JLINK_GetDebugInfo(0x107 = JLINKARM_DEBUG_INFO_NVIC_ADDR_INDEX)
T0828 000:316.908   Value=0xE000E000
T0828 000:316.917 - 0.018ms returns 0x00
T0828 000:316.924 JLINK_GetDebugInfo(0x10C = JLINKARM_DEBUG_INFO_DBG_ADDR_INDEX)
T0828 000:316.930   Value=0xE000EDF0
T0828 000:316.939 - 0.018ms returns 0x00
T0828 000:316.946 JLINK_GetDebugInfo(0x01 = Unknown)
T0828 000:316.957   Value=0x00000001
T0828 000:316.988 - 0.046ms returns 0x00
T0828 000:317.002 JLINK_ReadMemU32(0xE000ED00, 0x0001 Items, ...)
T0828 000:317.024    -- CPU_ReadMem(4 bytes @ 0xE000ED00)
T0828 000:318.488   Data:  41 C2 0F 41
T0828 000:318.529    - CPUID
T0828 000:318.546 - 1.549ms returns 1
T0828 000:318.564 JLINK_GetDebugInfo(0x10F = JLINKARM_DEBUG_INFO_HAS_CORTEX_M_SECURITY_EXT_INDEX)
T0828 000:318.584   Value=0x00000000
T0828 000:318.601 - 0.043ms returns 0x00
T0828 000:318.620 JLINK_SetResetType(JLINKARM_CM3_RESET_TYPE_NORMAL)
T0828 000:318.635 - 0.021ms returns JLINKARM_CM3_RESET_TYPE_NORMAL
T0828 000:318.649 JLINK_Reset()
T0828 000:318.676   CPU is running
T0828 000:318.704    -- CPU_WriteMem(4 bytes @ 0xE000EDF0)
T0828 000:320.251   CPU is running
T0828 000:320.280    -- CPU_WriteMem(4 bytes @ 0xE000EDFC)
T0828 000:321.391   Reset: Halt core after reset via DEMCR.VC_CORERESET.
T0828 000:323.205   Reset: Reset device via AIRCR.SYSRESETREQ.
T0828 000:323.229   CPU is running
T0828 000:323.242    -- CPU_WriteMem(4 bytes @ 0xE000ED0C)
T0828 000:378.341    -- CPU_ReadMem(4 bytes @ 0xE000EDF0)
T0828 000:379.511    -- CPU_ReadMem(4 bytes @ 0xE000EDF0)
T0828 000:380.736   CPU is running
T0828 000:380.871    -- CPU_WriteMem(4 bytes @ 0xE000EDF0)
T0828 000:381.961   CPU is running
T0828 000:381.995    -- CPU_WriteMem(4 bytes @ 0xE000EDFC)
T0828 000:389.073    -- CPU_ReadMem(4 bytes @ 0xE000EDF0)
T0828 000:393.239    -- CPU_WriteMem(4 bytes @ 0xE0002000)
T0828 000:394.685    -- CPU_ReadMem(4 bytes @ 0xE000EDFC)
T0828 000:395.809    -- CPU_ReadMem(4 bytes @ 0xE0001000)
T0828 000:397.224 - 78.681ms
T0828 000:397.395 JLINK_ReadReg(R15 (PC))
T0828 000:397.437 - 0.051ms returns 0x0800019C
T0828 000:397.459 JLINK_ReadReg(XPSR)
T0828 000:397.472 - 0.019ms returns 0x01000000
T0828 000:397.504 JLINK_Halt()
T0828 000:397.542 - 0.045ms returns 0x00
T0828 000:397.559 JLINK_ReadMemU32(0xE000EDF0, 0x0001 Items, ...)
T0828 000:397.601    -- CPU_ReadMem(4 bytes @ 0xE000EDF0)
T0828 000:398.603   Data:  03 00 03 00
T0828 000:398.630    - DHCSR
T0828 000:398.641 - 1.085ms returns 1
T0828 000:398.654 JLINK_WriteU32(0xE000EDF0, 0xA05F0003)
T0828 000:398.662    - DHCSR
T0828 000:398.688    -- CPU_WriteMem(4 bytes @ 0xE000EDF0)
T0828 000:400.146 - 1.503ms returns 0
T0828 000:400.165 JLINK_WriteU32(0xE000EDFC, 0x01000000)
T0828 000:400.173    - DEMCR
T0828 000:400.189    -- CPU_WriteMem(4 bytes @ 0xE000EDFC)
T0828 000:401.247 - 1.093ms returns 0
T0828 000:401.387 JLINK_GetHWStatus(...)
T0828 000:402.343 - 0.967ms returns 0x00
T0828 000:402.376 JLINK_GetNumBPUnits(Type = 0xFFFFFF00)
T0828 000:402.385 - 0.012ms returns 0x06
T0828 000:402.393 JLINK_GetNumBPUnits(Type = 0xF0)
T0828 000:402.400 - 0.010ms returns 0x2000
T0828 000:402.408 JLINK_GetNumWPUnits()
T0828 000:402.415 - 0.010ms returns 0x04
T0828 000:402.433 JLINK_GetSpeed()
T0828 000:402.441 - 0.011ms returns 0x1388
T0828 000:402.455 JLINK_ReadMemU32(0xE000E004, 0x0001 Items, ...)
T0828 000:402.468    -- CPU_ReadMem(4 bytes @ 0xE000E004)
T0828 000:403.576   Data:  02 00 00 00
T0828 000:403.595 - 1.143ms returns 1
T0828 000:403.605 JLINK_ReadMemU32(0xE000E004, 0x0001 Items, ...)
T0828 000:403.616    -- CPU_ReadMem(4 bytes @ 0xE000E004)
T0828 000:404.760   Data:  02 00 00 00
T0828 000:404.778 - 1.177ms returns 1
T0828 000:404.788 JLINK_WriteMemEx(0xE0001000, 0x001C Bytes, ..., Flags = 0x02000004)
T0828 000:404.796   Data:  01 00 00 00 00 00 00 00 00 00 00 00 00 00 00 00 ...
T0828 000:405.154    -- CPU_WriteMem(28 bytes @ 0xE0001000)
T0828 000:406.897 - 2.119ms returns 0x1C
T0828 000:406.916 JLINK_ReadReg(R15 (PC))
T0828 000:406.927 - 0.014ms returns 0x0800019C
T0828 000:406.935 JLINK_ReadReg(XPSR)
T0828 000:406.942 - 0.010ms returns 0x01000000
T0828 000:448.110   JLINK_ReadMemEx(0xE0001004, 0x0004 Bytes, ..., Flags = 0x02000000)
T0828 000:448.198   Data:  00 00 00 00
T0828 000:448.209    - DWT_CYCCNT
T0828 000:448.220 - 0.114ms returns 0x04
T0828 000:722.789 JLINK_SetResetType(JLINKARM_CM3_RESET_TYPE_NORMAL)
T0828 000:722.824 - 0.039ms returns JLINKARM_CM3_RESET_TYPE_NORMAL
T0828 000:722.833 JLINK_Reset()
T0828 000:722.848    -- CPU_WriteMem(4 bytes @ 0xE000EDF0)
T0828 000:724.476    -- CPU_WriteMem(4 bytes @ 0xE000EDFC)
T0828 000:725.650   Reset: Halt core after reset via DEMCR.VC_CORERESET.
T0828 000:727.180   Reset: Reset device via AIRCR.SYSRESETREQ.
T0828 000:727.363    -- CPU_WriteMem(4 bytes @ 0xE000ED0C)
T0828 000:782.815    -- CPU_ReadMem(4 bytes @ 0xE000EDF0)
T0828 000:784.545    -- CPU_ReadMem(4 bytes @ 0xE000EDF0)
T0828 000:786.329    -- CPU_WriteMem(4 bytes @ 0xE000EDF0)
T0828 000:787.575    -- CPU_WriteMem(4 bytes @ 0xE000EDFC)
T0828 000:794.944    -- CPU_ReadMem(4 bytes @ 0xE000EDF0)
T0828 000:800.255    -- CPU_WriteMem(4 bytes @ 0xE0002000)
T0828 000:801.543    -- CPU_ReadMem(4 bytes @ 0xE000EDFC)
T0828 000:803.049    -- CPU_ReadMem(4 bytes @ 0xE0001000)
T0828 000:804.491 - 81.685ms
T0828 000:804.617 JLINK_ReadReg(R15 (PC))
T0828 000:804.633 - 0.019ms returns 0x0800019C
T0828 000:804.642 JLINK_ReadReg(XPSR)
T0828 000:804.649 - 0.010ms returns 0x01000000
T0828 000:805.293   JLINK_ReadMemEx(0x0800019C, 0x003C Bytes, ..., Flags = 0x02000000)
T0828 000:805.319    -- CPU_ReadMem(128 bytes @ 0x08000180)
T0828 000:807.744    -- Updating C cache (128 bytes @ 0x08000180)
T0828 000:807.808    -- Read from C cache (60 bytes @ 0x0800019C)
T0828 000:807.824   Data:  06 48 80 47 06 48 00 47 FE E7 FE E7 FE E7 FE E7 ...
T0828 000:807.836 - 2.547ms returns 0x3C
T0828 000:807.851   JLINK_ReadMemEx(0x0800019C, 0x0002 Bytes, ..., Flags = 0x02000000)
T0828 000:807.867    -- Read from C cache (2 bytes @ 0x0800019C)
T0828 000:807.880   Data:  06 48
T0828 000:807.894 - 0.047ms returns 0x02
T0828 000:807.967   JLINK_ReadMemEx(0x0800019E, 0x0002 Bytes, ..., Flags = 0x02000000)
T0828 000:807.987    -- Read from C cache (2 bytes @ 0x0800019E)
T0828 000:808.000   Data:  80 47
T0828 000:808.012 - 0.050ms returns 0x02
T0828 000:808.044   JLINK_ReadMemEx(0x0800019E, 0x0002 Bytes, ..., Flags = 0x02000000)
T0828 000:808.059    -- Read from C cache (2 bytes @ 0x0800019E)
T0828 000:808.070   Data:  80 47
T0828 000:808.082 - 0.043ms returns 0x02
T0828 000:808.105   JLINK_ReadMemEx(0x080001A0, 0x003C Bytes, ..., Flags = 0x02000000)
T0828 000:808.116    -- Read from C cache (60 bytes @ 0x080001A0)
T0828 000:808.127   Data:  06 48 00 47 FE E7 FE E7 FE E7 FE E7 FE E7 FE E7 ...
T0828 000:808.137 - 0.036ms returns 0x3C
T0828 000:808.147   JLINK_ReadMemEx(0x080001A0, 0x0002 Bytes, ..., Flags = 0x02000000)
T0828 000:808.159    -- Read from C cache (2 bytes @ 0x080001A0)
T0828 000:808.170   Data:  06 48
T0828 000:808.181 - 0.038ms returns 0x02
T0828 003:483.920 JLINK_ReadReg(R0)
T0828 003:484.822 - 0.921ms returns 0x00000000
T0828 003:484.847 JLINK_ReadReg(R1)
T0828 003:484.855 - 0.025ms returns 0x00000000
T0828 003:484.876 JLINK_ReadReg(R2)
T0828 003:484.883 - 0.010ms returns 0x00000000
T0828 003:484.890 JLINK_ReadReg(R3)
T0828 003:484.897 - 0.010ms returns 0x00000000
T0828 003:484.905 JLINK_ReadReg(R4)
T0828 003:484.911 - 0.010ms returns 0x00000000
T0828 003:484.919 JLINK_ReadReg(R5)
T0828 003:484.925 - 0.010ms returns 0x00000000
T0828 003:484.933 JLINK_ReadReg(R6)
T0828 003:484.958 - 0.029ms returns 0x00000000
T0828 003:484.966 JLINK_ReadReg(R7)
T0828 003:484.973 - 0.011ms returns 0x00000000
T0828 003:484.994 JLINK_ReadReg(R8)
T0828 003:485.001 - 0.010ms returns 0x00000000
T0828 003:485.008 JLINK_ReadReg(R9)
T0828 003:485.015 - 0.010ms returns 0x00000000
T0828 003:485.022 JLINK_ReadReg(R10)
T0828 003:485.048 - 0.028ms returns 0x00000000
T0828 003:485.055 JLINK_ReadReg(R11)
T0828 003:485.063 - 0.010ms returns 0x00000000
T0828 003:485.070 JLINK_ReadReg(R12)
T0828 003:485.078 - 0.010ms returns 0x00000000
T0828 003:485.086 JLINK_ReadReg(R13 (SP))
T0828 003:485.106 - 0.023ms returns 0x2001EAA0
T0828 003:485.113 JLINK_ReadReg(R14)
T0828 003:485.120 - 0.010ms returns 0xFFFFFFFF
T0828 003:485.127 JLINK_ReadReg(R15 (PC))
T0828 003:485.134 - 0.010ms returns 0x0800019C
T0828 003:485.142 JLINK_ReadReg(XPSR)
T0828 003:485.166 - 0.028ms returns 0x01000000
T0828 003:485.174 JLINK_ReadReg(MSP)
T0828 003:485.182 - 0.010ms returns 0x2001EAA0
T0828 003:485.189 JLINK_ReadReg(PSP)
T0828 003:485.197 - 0.010ms returns 0x00000000
T0828 003:485.204 JLINK_ReadReg(CFBP)
T0828 003:485.212 - 0.011ms returns 0x00000000
T0828 003:485.220 JLINK_ReadReg(FPSCR)
T0828 003:488.878 - 3.666ms returns 0x00000000
T0828 003:488.892 JLINK_ReadReg(FPS0)
T0828 003:488.900 - 0.011ms returns 0x00000000
T0828 003:488.908 JLINK_ReadReg(FPS1)
T0828 003:488.914 - 0.010ms returns 0x00000000
T0828 003:488.922 JLINK_ReadReg(FPS2)
T0828 003:488.928 - 0.010ms returns 0x00000000
T0828 003:488.936 JLINK_ReadReg(FPS3)
T0828 003:488.942 - 0.010ms returns 0x00000000
T0828 003:488.950 JLINK_ReadReg(FPS4)
T0828 003:488.956 - 0.009ms returns 0x00000000
T0828 003:488.963 JLINK_ReadReg(FPS5)
T0828 003:488.970 - 0.010ms returns 0x00000000
T0828 003:488.977 JLINK_ReadReg(FPS6)
T0828 003:488.984 - 0.009ms returns 0x00000000
T0828 003:488.991 JLINK_ReadReg(FPS7)
T0828 003:488.998 - 0.009ms returns 0x00000000
T0828 003:489.005 JLINK_ReadReg(FPS8)
T0828 003:489.012 - 0.009ms returns 0x00000000
T0828 003:489.019 JLINK_ReadReg(FPS9)
T0828 003:489.070 - 0.058ms returns 0x00000000
T0828 003:489.082 JLINK_ReadReg(FPS10)
T0828 003:489.088 - 0.010ms returns 0x00000000
T0828 003:489.096 JLINK_ReadReg(FPS11)
T0828 003:489.102 - 0.010ms returns 0x00000000
T0828 003:489.109 JLINK_ReadReg(FPS12)
T0828 003:489.116 - 0.010ms returns 0x00000000
T0828 003:489.123 JLINK_ReadReg(FPS13)
T0828 003:489.130 - 0.009ms returns 0x00000000
T0828 003:489.137 JLINK_ReadReg(FPS14)
T0828 003:489.144 - 0.009ms returns 0x00000000
T0828 003:489.151 JLINK_ReadReg(FPS15)
T0828 003:525.182 - 36.036ms returns 0x00000000
T0828 003:525.198 JLINK_ReadReg(FPS16)
T0828 003:525.224 - 0.030ms returns 0x00000000
T0828 003:525.233 JLINK_ReadReg(FPS17)
T0828 003:525.241 - 0.011ms returns 0x00000000
T0828 003:525.249 JLINK_ReadReg(FPS18)
T0828 003:525.270 - 0.023ms returns 0x00000000
T0828 003:525.278 JLINK_ReadReg(FPS19)
T0828 003:525.285 - 0.010ms returns 0x00000000
T0828 003:525.293 JLINK_ReadReg(FPS20)
T0828 003:525.299 - 0.010ms returns 0x00000000
T0828 003:525.307 JLINK_ReadReg(FPS21)
T0828 003:525.314 - 0.010ms returns 0x00000000
T0828 003:525.322 JLINK_ReadReg(FPS22)
T0828 003:525.329 - 0.011ms returns 0x00000000
T0828 003:525.340 JLINK_ReadReg(FPS23)
T0828 003:525.373 - 0.036ms returns 0x00000000
T0828 003:525.445 JLINK_ReadReg(FPS24)
T0828 003:525.454 - 0.012ms returns 0x00000000
T0828 003:525.461 JLINK_ReadReg(FPS25)
T0828 003:525.468 - 0.010ms returns 0x00000000
T0828 003:525.475 JLINK_ReadReg(FPS26)
T0828 003:525.482 - 0.010ms returns 0x00000000
T0828 003:525.489 JLINK_ReadReg(FPS27)
T0828 003:525.496 - 0.010ms returns 0x00000000
T0828 003:525.503 JLINK_ReadReg(FPS28)
T0828 003:525.510 - 0.010ms returns 0x00000000
T0828 003:525.517 JLINK_ReadReg(FPS29)
T0828 003:525.524 - 0.010ms returns 0x00000000
T0828 003:525.531 JLINK_ReadReg(FPS30)
T0828 003:525.538 - 0.010ms returns 0x00000000
T0828 003:525.545 JLINK_ReadReg(FPS31)
T0828 003:525.552 - 0.010ms returns 0x00000000
T4158 003:693.695   JLINK_ReadMemEx(0x0800019C, 0x0002 Bytes, ..., Flags = 0x02000000)
T4158 003:693.807    -- Read from C cache (2 bytes @ 0x0800019C)
T4158 003:693.842   Data:  06 48
T4158 003:693.858 - 0.169ms returns 0x02
T4158 003:693.874   JLINK_SetBPEx(Addr = 0x08015C5C, Type = 0xFFFFFFF2)
T4158 003:693.899 - 0.031ms returns 0x00000001
T4158 003:693.911   JLINK_SetBPEx(Addr = 0x0801940E, Type = 0xFFFFFFF2)
T4158 003:693.924 - 0.016ms returns 0x00000002
T4158 003:693.934   JLINK_SetBPEx(Addr = 0x0800DA8C, Type = 0xFFFFFFF2)
T4158 003:693.967 - 0.036ms returns 0x00000003
T4158 003:693.976   JLINK_SetBPEx(Addr = 0x0800DAA4, Type = 0xFFFFFFF2)
T4158 003:693.986 - 0.014ms returns 0x00000004
T4158 003:693.996 JLINK_Go()
T4158 003:694.025    -- CPU_WriteMem(4 bytes @ 0xE0002000)
T4158 003:694.944    -- CPU_WriteMem(4 bytes @ 0xE0002000)
T4158 003:696.126    -- CPU_WriteMem(4 bytes @ 0xE0002000)
T4158 003:697.425    -- CPU_WriteMem(4 bytes @ 0xE0002000)
T4158 003:698.425    -- CPU_ReadMem(4 bytes @ 0xE0001000)
T4158 003:699.330    -- CPU_WriteMem(4 bytes @ 0xE0002008)
T4158 003:699.598    -- CPU_WriteMem(4 bytes @ 0xE000200C)
T4158 003:699.618    -- CPU_WriteMem(4 bytes @ 0xE0002010)
T4158 003:699.633    -- CPU_WriteMem(4 bytes @ 0xE0002014)
T4158 003:699.647    -- CPU_WriteMem(4 bytes @ 0xE0002018)
T4158 003:699.662    -- CPU_WriteMem(4 bytes @ 0xE000201C)
T4158 003:701.779    -- CPU_WriteMem(4 bytes @ 0xE0001004)
T4158 003:704.262 - 10.325ms
T4158 003:804.657 JLINK_IsHalted()
T4158 003:807.230 - 2.587ms returns TRUE
T4158 003:807.252 JLINK_Halt()
T4158 003:807.260 - 0.011ms returns 0x00
T4158 003:807.268 JLINK_IsHalted()
T4158 003:807.275 - 0.010ms returns TRUE
T4158 003:807.283 JLINK_IsHalted()
T4158 003:807.290 - 0.010ms returns TRUE
T4158 003:807.298 JLINK_IsHalted()
T4158 003:807.305 - 0.010ms returns TRUE
T4158 003:807.316 JLINK_ReadReg(R15 (PC))
T4158 003:807.330 - 0.017ms returns 0x08015C5C
T4158 003:807.338 JLINK_ReadReg(XPSR)
T4158 003:807.346 - 0.011ms returns 0x61000000
T4158 003:807.357 JLINK_ClrBPEx(BPHandle = 0x00000001)
T4158 003:807.368 - 0.016ms returns 0x00
T4158 003:807.379 JLINK_ClrBPEx(BPHandle = 0x00000002)
T4158 003:807.386 - 0.011ms returns 0x00
T4158 003:807.395 JLINK_ClrBPEx(BPHandle = 0x00000003)
T4158 003:807.402 - 0.011ms returns 0x00
T4158 003:807.411 JLINK_ClrBPEx(BPHandle = 0x00000004)
T4158 003:807.418 - 0.010ms returns 0x00
T4158 003:807.428 JLINK_ReadMemU32(0xE000ED30, 0x0001 Items, ...)
T4158 003:807.440    -- CPU_ReadMem(4 bytes @ 0xE000ED30)
T4158 003:808.295   Data:  02 00 00 00
T4158 003:808.315 - 0.890ms returns 1
T4158 003:808.325 JLINK_ReadMemU32(0xE0001028, 0x0001 Items, ...)
T4158 003:808.336    -- CPU_ReadMem(4 bytes @ 0xE0001028)
T4158 003:808.959   Data:  00 00 00 00
T4158 003:808.980    - DWT_FUNC[0]
T4158 003:808.990 - 0.669ms returns 1
T4158 003:809.000 JLINK_ReadMemU32(0xE0001038, 0x0001 Items, ...)
T4158 003:809.011    -- CPU_ReadMem(4 bytes @ 0xE0001038)
T4158 003:809.617   Data:  00 02 00 00
T4158 003:809.636    - DWT_FUNC[1]
T4158 003:809.646 - 0.650ms returns 1
T4158 003:809.657 JLINK_ReadMemU32(0xE0001048, 0x0001 Items, ...)
T4158 003:809.669    -- CPU_ReadMem(4 bytes @ 0xE0001048)
T4158 003:810.195   Data:  00 00 00 00
T4158 003:810.216    - DWT_FUNC[2]
T4158 003:810.226 - 0.572ms returns 1
T4158 003:810.237 JLINK_ReadMemU32(0xE0001058, 0x0001 Items, ...)
T4158 003:810.249    -- CPU_ReadMem(4 bytes @ 0xE0001058)
T4158 003:810.812   Data:  00 00 00 00
T4158 003:810.841    - DWT_FUNC[3]
T4158 003:810.858 - 0.631ms returns 1
T4158 003:811.002 JLINK_ReadReg(R0)
T4158 003:811.016 - 0.018ms returns 0x08015C5D
T4158 003:811.024 JLINK_ReadReg(R1)
T4158 003:811.032 - 0.011ms returns 0x2001EAA0
T4158 003:811.040 JLINK_ReadReg(R2)
T4158 003:811.047 - 0.011ms returns 0x00000000
T4158 003:811.055 JLINK_ReadReg(R3)
T4158 003:811.063 - 0.011ms returns 0x08007EED
T4158 003:811.071 JLINK_ReadReg(R4)
T4158 003:811.078 - 0.011ms returns 0x08037134
T4158 003:811.086 JLINK_ReadReg(R5)
T4158 003:811.093 - 0.011ms returns 0x08037134
T4158 003:811.101 JLINK_ReadReg(R6)
T4158 003:811.109 - 0.010ms returns 0x00000000
T4158 003:811.116 JLINK_ReadReg(R7)
T4158 003:811.124 - 0.010ms returns 0x00000000
T4158 003:811.132 JLINK_ReadReg(R8)
T4158 003:811.139 - 0.011ms returns 0x00000000
T4158 003:811.147 JLINK_ReadReg(R9)
T4158 003:811.154 - 0.010ms returns 0x00000000
T4158 003:811.162 JLINK_ReadReg(R10)
T4158 003:811.170 - 0.011ms returns 0x00000000
T4158 003:811.178 JLINK_ReadReg(R11)
T4158 003:811.185 - 0.010ms returns 0x00000000
T4158 003:811.193 JLINK_ReadReg(R12)
T4158 003:811.200 - 0.010ms returns 0x00000000
T4158 003:811.208 JLINK_ReadReg(R13 (SP))
T4158 003:811.215 - 0.011ms returns 0x2001EAA0
T4158 003:811.223 JLINK_ReadReg(R14)
T4158 003:811.231 - 0.011ms returns 0x080009CD
T4158 003:811.239 JLINK_ReadReg(R15 (PC))
T4158 003:811.246 - 0.010ms returns 0x08015C5C
T4158 003:811.254 JLINK_ReadReg(XPSR)
T4158 003:811.261 - 0.011ms returns 0x61000000
T4158 003:811.269 JLINK_ReadReg(MSP)
T4158 003:811.277 - 0.010ms returns 0x2001EAA0
T4158 003:811.285 JLINK_ReadReg(PSP)
T4158 003:811.292 - 0.011ms returns 0x00000000
T4158 003:811.300 JLINK_ReadReg(CFBP)
T4158 003:811.307 - 0.011ms returns 0x00000000
T4158 003:811.315 JLINK_ReadReg(FPSCR)
T4158 003:815.714 - 4.547ms returns 0x00000000
T4158 003:815.881 JLINK_ReadReg(FPS0)
T4158 003:815.936 - 0.060ms returns 0x00000000
T4158 003:815.947 JLINK_ReadReg(FPS1)
T4158 003:815.957 - 0.014ms returns 0x00000000
T4158 003:815.967 JLINK_ReadReg(FPS2)
T4158 003:815.978 - 0.017ms returns 0x00000000
T4158 003:815.993 JLINK_ReadReg(FPS3)
T4158 003:816.002 - 0.014ms returns 0x00000000
T4158 003:816.014 JLINK_ReadReg(FPS4)
T4158 003:816.025 - 0.018ms returns 0x00000000
T4158 003:816.039 JLINK_ReadReg(FPS5)
T4158 003:816.051 - 0.019ms returns 0x00000000
T4158 003:816.067 JLINK_ReadReg(FPS6)
T4158 003:816.090 - 0.031ms returns 0x00000000
T4158 003:816.113 JLINK_ReadReg(FPS7)
T4158 003:816.146 - 0.047ms returns 0x00000000
T4158 003:816.178 JLINK_ReadReg(FPS8)
T4158 003:816.213 - 0.050ms returns 0x00000000
T4158 003:816.268 JLINK_ReadReg(FPS9)
T4158 003:816.328 - 0.076ms returns 0x00000000
T4158 003:816.358 JLINK_ReadReg(FPS10)
T4158 003:816.386 - 0.035ms returns 0x00000000
T4158 003:816.403 JLINK_ReadReg(FPS11)
T4158 003:816.423 - 0.031ms returns 0x00000000
T4158 003:816.457 JLINK_ReadReg(FPS12)
T4158 003:816.494 - 0.050ms returns 0x00000000
T4158 003:816.518 JLINK_ReadReg(FPS13)
T4158 003:816.569 - 0.079ms returns 0x00000000
T4158 003:816.641 JLINK_ReadReg(FPS14)
T4158 003:816.695 - 0.069ms returns 0x00000000
T4158 003:816.728 JLINK_ReadReg(FPS15)
T4158 003:816.773 - 0.062ms returns 0x00000000
T4158 003:816.809 JLINK_ReadReg(FPS16)
T4158 003:816.851 - 0.066ms returns 0x00000000
T4158 003:816.905 JLINK_ReadReg(FPS17)
T4158 003:816.946 - 0.052ms returns 0x00000000
T4158 003:816.964 JLINK_ReadReg(FPS18)
T4158 003:816.973 - 0.014ms returns 0x00000000
T4158 003:816.983 JLINK_ReadReg(FPS19)
T4158 003:816.993 - 0.013ms returns 0x00000000
T4158 003:817.003 JLINK_ReadReg(FPS20)
T4158 003:817.013 - 0.014ms returns 0x00000000
T4158 003:817.024 JLINK_ReadReg(FPS21)
T4158 003:817.035 - 0.016ms returns 0x00000000
T4158 003:817.045 JLINK_ReadReg(FPS22)
T4158 003:817.055 - 0.014ms returns 0x00000000
T4158 003:817.065 JLINK_ReadReg(FPS23)
T4158 003:817.074 - 0.013ms returns 0x00000000
T4158 003:817.084 JLINK_ReadReg(FPS24)
T4158 003:817.092 - 0.013ms returns 0x00000000
T4158 003:817.102 JLINK_ReadReg(FPS25)
T4158 003:817.112 - 0.017ms returns 0x00000000
T4158 003:817.132 JLINK_ReadReg(FPS26)
T4158 003:817.150 - 0.029ms returns 0x00000000
T4158 003:817.172 JLINK_ReadReg(FPS27)
T4158 003:817.196 - 0.038ms returns 0x00000000
T4158 003:817.225 JLINK_ReadReg(FPS28)
T4158 003:817.250 - 0.037ms returns 0x00000000
T4158 003:817.275 JLINK_ReadReg(FPS29)
T4158 003:817.288 - 0.022ms returns 0x00000000
T4158 003:817.309 JLINK_ReadReg(FPS30)
T4158 003:817.344 - 0.077ms returns 0x00000000
T4158 003:817.403 JLINK_ReadReg(FPS31)
T4158 003:817.430 - 0.040ms returns 0x00000000
T0828 056:471.941   JLINK_ReadMemEx(0x08022C0C, 0x003C Bytes, ..., Flags = 0x02000000)
T0828 056:471.974    -- CPU_ReadMem(128 bytes @ 0x08022C00)
T0828 056:473.797    -- Updating C cache (128 bytes @ 0x08022C00)
T0828 056:473.818    -- Read from C cache (60 bytes @ 0x08022C0C)
T0828 056:473.830   Data:  EA F7 26 FF 00 22 0F A1 68 46 ED F7 49 FD 04 46 ...
T0828 056:473.840 - 1.903ms returns 0x3C
T0828 056:473.850   JLINK_ReadMemEx(0x08022C0C, 0x0002 Bytes, ..., Flags = 0x02000000)
T0828 056:473.862    -- Read from C cache (2 bytes @ 0x08022C0C)
T0828 056:473.872   Data:  EA F7
T0828 056:473.882 - 0.035ms returns 0x02
T0828 056:473.933   JLINK_ReadMemEx(0x08022C0E, 0x0002 Bytes, ..., Flags = 0x02000000)
T0828 056:473.945    -- Read from C cache (2 bytes @ 0x08022C0E)
T0828 056:473.955   Data:  26 FF
T0828 056:473.965 - 0.035ms returns 0x02
T4158 059:109.445   JLINK_ReadMemEx(0x08015C5C, 0x0002 Bytes, ..., Flags = 0x02000000)
T4158 059:109.507    -- CPU_ReadMem(64 bytes @ 0x08015C40)
T4158 059:110.674    -- Updating C cache (64 bytes @ 0x08015C40)
T4158 059:110.695    -- Read from C cache (2 bytes @ 0x08015C5C)
T4158 059:110.713   Data:  EB F7
T4158 059:110.727 - 1.287ms returns 0x02
T4158 059:110.740   JLINK_SetBPEx(Addr = 0x0801940E, Type = 0xFFFFFFF2)
T4158 059:110.753 - 0.017ms returns 0x00000005
T4158 059:110.763   JLINK_SetBPEx(Addr = 0x0800DA8C, Type = 0xFFFFFFF2)
T4158 059:110.774 - 0.014ms returns 0x00000006
T4158 059:110.783   JLINK_SetBPEx(Addr = 0x0800DAA4, Type = 0xFFFFFFF2)
T4158 059:110.793 - 0.014ms returns 0x00000007
T4158 059:110.802   JLINK_SetBPEx(Addr = 0x08022C0C, Type = 0xFFFFFFF2)
T4158 059:110.813 - 0.014ms returns 0x00000008
T4158 059:110.823 JLINK_Go()
T4158 059:111.691    -- CPU_WriteMem(4 bytes @ 0xE0002000)
T4158 059:112.353    -- CPU_WriteMem(4 bytes @ 0xE0002000)
T4158 059:113.270    -- CPU_WriteMem(4 bytes @ 0xE0002000)
T4158 059:114.575    -- CPU_WriteMem(4 bytes @ 0xE0002000)
T4158 059:115.669    -- CPU_ReadMem(4 bytes @ 0xE0001000)
T4158 059:116.745    -- CPU_WriteMem(4 bytes @ 0xE0002008)
T4158 059:116.858    -- CPU_WriteMem(4 bytes @ 0xE000200C)
T4158 059:116.881    -- CPU_WriteMem(4 bytes @ 0xE0002010)
T4158 059:116.898    -- CPU_WriteMem(4 bytes @ 0xE0002014)
T4158 059:119.088 - 8.409ms
T4158 059:219.590 JLINK_IsHalted()
T4158 059:220.772 - 1.377ms returns FALSE
T4158 059:321.542 JLINK_IsHalted()
T4158 059:323.011 - 1.602ms returns FALSE
T4158 059:424.321 JLINK_IsHalted()
T4158 059:428.391 - 4.108ms returns TRUE
T4158 059:428.439 JLINK_Halt()
T4158 059:428.446 - 0.010ms returns 0x00
T4158 059:428.454 JLINK_IsHalted()
T4158 059:428.461 - 0.009ms returns TRUE
T4158 059:428.468 JLINK_IsHalted()
T4158 059:428.474 - 0.009ms returns TRUE
T4158 059:428.481 JLINK_IsHalted()
T4158 059:428.488 - 0.009ms returns TRUE
T4158 059:428.497 JLINK_ReadReg(R15 (PC))
T4158 059:428.506 - 0.012ms returns 0x08022C0C
T4158 059:428.513 JLINK_ReadReg(XPSR)
T4158 059:428.520 - 0.010ms returns 0x01000000
T4158 059:428.533 JLINK_ClrBPEx(BPHandle = 0x00000005)
T4158 059:428.540 - 0.011ms returns 0x00
T4158 059:428.549 JLINK_ClrBPEx(BPHandle = 0x00000006)
T4158 059:428.556 - 0.010ms returns 0x00
T4158 059:428.564 JLINK_ClrBPEx(BPHandle = 0x00000007)
T4158 059:428.571 - 0.010ms returns 0x00
T4158 059:428.579 JLINK_ClrBPEx(BPHandle = 0x00000008)
T4158 059:428.586 - 0.010ms returns 0x00
T4158 059:428.595 JLINK_ReadMemU32(0xE000ED30, 0x0001 Items, ...)
T4158 059:428.607    -- CPU_ReadMem(4 bytes @ 0xE000ED30)
T4158 059:429.349   Data:  02 00 00 00
T4158 059:429.372 - 0.780ms returns 1
T4158 059:429.382 JLINK_ReadMemU32(0xE0001028, 0x0001 Items, ...)
T4158 059:429.395    -- CPU_ReadMem(4 bytes @ 0xE0001028)
T4158 059:430.572   Data:  00 00 00 00
T4158 059:430.607    - DWT_FUNC[0]
T4158 059:430.616 - 1.237ms returns 1
T4158 059:430.628 JLINK_ReadMemU32(0xE0001038, 0x0001 Items, ...)
T4158 059:430.643    -- CPU_ReadMem(4 bytes @ 0xE0001038)
T4158 059:432.197   Data:  00 02 00 00
T4158 059:432.231    - DWT_FUNC[1]
T4158 059:432.241 - 1.616ms returns 1
T4158 059:432.253 JLINK_ReadMemU32(0xE0001048, 0x0001 Items, ...)
T4158 059:432.268    -- CPU_ReadMem(4 bytes @ 0xE0001048)
T4158 059:432.811   Data:  00 00 00 00
T4158 059:432.845    - DWT_FUNC[2]
T4158 059:432.878 - 0.630ms returns 1
T4158 059:432.895 JLINK_ReadMemU32(0xE0001058, 0x0001 Items, ...)
T4158 059:432.914    -- CPU_ReadMem(4 bytes @ 0xE0001058)
T4158 059:433.446   Data:  00 00 00 00
T4158 059:433.467    - DWT_FUNC[3]
T4158 059:433.477 - 0.585ms returns 1
T4158 059:433.576 JLINK_ReadReg(R0)
T4158 059:433.587 - 0.015ms returns 0x00000000
T4158 059:433.596 JLINK_ReadReg(R1)
T4158 059:433.603 - 0.011ms returns 0x00000000
T4158 059:433.612 JLINK_ReadReg(R2)
T4158 059:433.619 - 0.011ms returns 0x00000000
T4158 059:433.627 JLINK_ReadReg(R3)
T4158 059:433.634 - 0.011ms returns 0x00000000
T4158 059:433.642 JLINK_ReadReg(R4)
T4158 059:433.650 - 0.011ms returns 0x04040404
T4158 059:433.658 JLINK_ReadReg(R5)
T4158 059:433.665 - 0.010ms returns 0x05050505
T4158 059:433.673 JLINK_ReadReg(R6)
T4158 059:433.680 - 0.011ms returns 0x06060606
T4158 059:433.702 JLINK_ReadReg(R7)
T4158 059:433.710 - 0.011ms returns 0x07070707
T4158 059:433.718 JLINK_ReadReg(R8)
T4158 059:433.740 - 0.025ms returns 0x08080808
T4158 059:433.748 JLINK_ReadReg(R9)
T4158 059:433.755 - 0.011ms returns 0x09090909
T4158 059:433.763 JLINK_ReadReg(R10)
T4158 059:433.770 - 0.010ms returns 0x10101010
T4158 059:433.778 JLINK_ReadReg(R11)
T4158 059:433.786 - 0.010ms returns 0x11111111
T4158 059:433.794 JLINK_ReadReg(R12)
T4158 059:433.801 - 0.010ms returns 0x12121212
T4158 059:433.809 JLINK_ReadReg(R13 (SP))
T4158 059:433.817 - 0.011ms returns 0x20000C88
T4158 059:433.825 JLINK_ReadReg(R14)
T4158 059:433.833 - 0.015ms returns 0x08005F67
T4158 059:433.865 JLINK_ReadReg(R15 (PC))
T4158 059:433.876 - 0.016ms returns 0x08022C0C
T4158 059:433.887 JLINK_ReadReg(XPSR)
T4158 059:433.898 - 0.015ms returns 0x01000000
T4158 059:433.907 JLINK_ReadReg(MSP)
T4158 059:433.915 - 0.011ms returns 0x20003060
T4158 059:433.923 JLINK_ReadReg(PSP)
T4158 059:434.027 - 0.109ms returns 0x20000C88
T4158 059:434.056 JLINK_ReadReg(CFBP)
T4158 059:434.064 - 0.011ms returns 0x02000000
T4158 059:434.073 JLINK_ReadReg(FPSCR)
T4158 059:439.103 - 5.192ms returns 0x00000000
T4158 059:439.290 JLINK_ReadReg(FPS0)
T4158 059:439.316 - 0.032ms returns 0x00000000
T4158 059:439.329 JLINK_ReadReg(FPS1)
T4158 059:439.339 - 0.016ms returns 0x00000000
T4158 059:439.351 JLINK_ReadReg(FPS2)
T4158 059:439.359 - 0.012ms returns 0x00000000
T4158 059:439.368 JLINK_ReadReg(FPS3)
T4158 059:439.376 - 0.011ms returns 0x00000000
T4158 059:439.385 JLINK_ReadReg(FPS4)
T4158 059:439.394 - 0.013ms returns 0x00000000
T4158 059:439.405 JLINK_ReadReg(FPS5)
T4158 059:439.416 - 0.015ms returns 0x00000000
T4158 059:439.424 JLINK_ReadReg(FPS6)
T4158 059:439.436 - 0.017ms returns 0x00000000
T4158 059:439.448 JLINK_ReadReg(FPS7)
T4158 059:439.461 - 0.019ms returns 0x00000000
T4158 059:439.474 JLINK_ReadReg(FPS8)
T4158 059:439.485 - 0.016ms returns 0x00000000
T4158 059:439.496 JLINK_ReadReg(FPS9)
T4158 059:439.506 - 0.014ms returns 0x00000000
T4158 059:439.519 JLINK_ReadReg(FPS10)
T4158 059:439.531 - 0.019ms returns 0x00000000
T4158 059:439.544 JLINK_ReadReg(FPS11)
T4158 059:439.556 - 0.017ms returns 0x00000000
T4158 059:439.567 JLINK_ReadReg(FPS12)
T4158 059:439.594 - 0.048ms returns 0x00000000
T4158 059:439.626 JLINK_ReadReg(FPS13)
T4158 059:439.640 - 0.020ms returns 0x00000000
T4158 059:439.652 JLINK_ReadReg(FPS14)
T4158 059:439.662 - 0.019ms returns 0x00000000
T4158 059:439.682 JLINK_ReadReg(FPS15)
T4158 059:439.696 - 0.021ms returns 0x00000000
T4158 059:439.717 JLINK_ReadReg(FPS16)
T4158 059:439.733 - 0.025ms returns 0x00000000
T4158 059:439.755 JLINK_ReadReg(FPS17)
T4158 059:439.779 - 0.036ms returns 0x00000000
T4158 059:439.808 JLINK_ReadReg(FPS18)
T4158 059:439.871 - 0.136ms returns 0x00000000
T4158 059:439.993 JLINK_ReadReg(FPS19)
T4158 059:440.061 - 0.100ms returns 0x00000000
T4158 059:440.114 JLINK_ReadReg(FPS20)
T4158 059:440.141 - 0.032ms returns 0x00000000
T4158 059:440.169 JLINK_ReadReg(FPS21)
T4158 059:440.176 - 0.011ms returns 0x00000000
T4158 059:440.184 JLINK_ReadReg(FPS22)
T4158 059:440.192 - 0.011ms returns 0x00000000
T4158 059:440.201 JLINK_ReadReg(FPS23)
T4158 059:440.208 - 0.011ms returns 0x00000000
T4158 059:440.236 JLINK_ReadReg(FPS24)
T4158 059:440.260 - 0.027ms returns 0x00000000
T4158 059:440.268 JLINK_ReadReg(FPS25)
T4158 059:440.275 - 0.010ms returns 0x00000000
T4158 059:440.283 JLINK_ReadReg(FPS26)
T4158 059:440.290 - 0.010ms returns 0x00000000
T4158 059:440.298 JLINK_ReadReg(FPS27)
T4158 059:440.306 - 0.010ms returns 0x00000000
T4158 059:440.313 JLINK_ReadReg(FPS28)
T4158 059:440.321 - 0.010ms returns 0x00000000
T4158 059:440.329 JLINK_ReadReg(FPS29)
T4158 059:440.336 - 0.010ms returns 0x00000000
T4158 059:440.344 JLINK_ReadReg(FPS30)
T4158 059:440.351 - 0.011ms returns 0x00000000
T4158 059:440.359 JLINK_ReadReg(FPS31)
T4158 059:440.366 - 0.010ms returns 0x00000000
T4158 061:734.835   JLINK_ReadMemEx(0x08022C0C, 0x003C Bytes, ..., Flags = 0x02000000)
T4158 061:734.888    -- CPU_ReadMem(128 bytes @ 0x08022C00)
T4158 061:735.962    -- Updating C cache (128 bytes @ 0x08022C00)
T4158 061:736.000    -- Read from C cache (60 bytes @ 0x08022C0C)
T4158 061:736.022   Data:  EA F7 26 FF 00 22 0F A1 68 46 ED F7 49 FD 04 46 ...
T4158 061:736.044 - 1.216ms returns 0x3C
T4158 061:736.087   JLINK_ReadMemEx(0x08022C0C, 0x0002 Bytes, ..., Flags = 0x02000000)
T4158 061:736.111    -- Read from C cache (2 bytes @ 0x08022C0C)
T4158 061:736.129   Data:  EA F7
T4158 061:736.149 - 0.072ms returns 0x02
T4158 061:736.166   JLINK_ReadMemEx(0x08022C0E, 0x0002 Bytes, ..., Flags = 0x02000000)
T4158 061:736.223    -- Read from C cache (2 bytes @ 0x08022C0E)
T4158 061:736.241   Data:  26 FF
T4158 061:736.260 - 0.100ms returns 0x02
T4158 061:736.278   JLINK_ReadMemEx(0x08022C0C, 0x0002 Bytes, ..., Flags = 0x02000000)
T4158 061:736.300    -- Read from C cache (2 bytes @ 0x08022C0C)
T4158 061:736.339   Data:  EA F7
T4158 061:736.382 - 0.117ms returns 0x02
T4158 061:736.414 JLINK_Step()
T4158 061:737.540    -- Read from C cache (2 bytes @ 0x08022C0C)
T4158 061:737.703    -- CPU_ReadMem(4 bytes @ 0xE000ED18)
T4158 061:738.681    -- CPU_WriteMem(4 bytes @ 0xE000ED18)
T4158 061:739.960    -- CPU_ReadMem(4 bytes @ 0xE000ED18)
T4158 061:741.012    -- CPU_WriteMem(4 bytes @ 0xE000ED18)
T4158 061:742.135    -- CPU_ReadMem(4 bytes @ 0xE0001004)
T4158 061:742.762    -- Read from C cache (2 bytes @ 0x08022C0E)
T4158 061:742.784    -- Simulated
T4158 061:742.795 - 6.384ms returns 0x00
T4158 061:742.909 JLINK_ReadReg(R15 (PC))
T4158 061:742.930 - 0.025ms returns 0x0800DA5C
T4158 061:742.939 JLINK_ReadReg(XPSR)
T4158 061:742.947 - 0.011ms returns 0x01000000
T4158 061:742.963   JLINK_SetBPEx(Addr = 0x08022C10, Type = 0xFFFFFFF2)
T4158 061:742.975 - 0.016ms returns 0x00000009
T4158 061:742.984   JLINK_SetBPEx(Addr = 0x0801940E, Type = 0xFFFFFFF2)
T4158 061:742.995 - 0.014ms returns 0x0000000A
T4158 061:743.004   JLINK_SetBPEx(Addr = 0x0800DA8C, Type = 0xFFFFFFF2)
T4158 061:743.015 - 0.014ms returns 0x0000000B
T4158 061:743.024   JLINK_SetBPEx(Addr = 0x0800DAA4, Type = 0xFFFFFFF2)
T4158 061:743.036 - 0.016ms returns 0x0000000C
T4158 061:743.045   JLINK_SetBPEx(Addr = 0x08022C0C, Type = 0xFFFFFFF2)
T4158 061:743.056 - 0.014ms returns 0x0000000D
T4158 061:743.065 JLINK_Go()
T4158 061:743.078    -- CPU_WriteMem(4 bytes @ 0xE0002000)
T4158 061:743.892    -- CPU_WriteMem(4 bytes @ 0xE0002000)
T4158 061:744.582    -- CPU_WriteMem(4 bytes @ 0xE0002000)
T4158 061:745.237    -- CPU_WriteMem(4 bytes @ 0xE0002000)
T4158 061:745.883    -- CPU_WriteMem(4 bytes @ 0xE0002000)
T4158 061:746.520    -- CPU_ReadMem(4 bytes @ 0xE0001000)
T4158 061:747.203    -- CPU_WriteMem(4 bytes @ 0xE0002008)
T4158 061:747.218    -- CPU_WriteMem(4 bytes @ 0xE000200C)
T4158 061:747.229    -- CPU_WriteMem(4 bytes @ 0xE0002010)
T4158 061:747.239    -- CPU_WriteMem(4 bytes @ 0xE0002014)
T4158 061:747.249    -- CPU_WriteMem(4 bytes @ 0xE0002018)
T4158 061:748.342    -- CPU_WriteMem(4 bytes @ 0xE0001004)
T4158 061:750.390 - 7.331ms
T4158 061:850.985 JLINK_IsHalted()
T4158 061:852.342 - 1.405ms returns FALSE
T4158 061:953.184 JLINK_IsHalted()
T4158 061:956.354 - 3.308ms returns TRUE
T4158 061:956.538 JLINK_Halt()
T4158 061:956.552 - 0.020ms returns 0x00
T4158 061:956.564 JLINK_IsHalted()
T4158 061:956.573 - 0.014ms returns TRUE
T4158 061:956.584 JLINK_IsHalted()
T4158 061:956.595 - 0.015ms returns TRUE
T4158 061:956.608 JLINK_IsHalted()
T4158 061:956.635 - 0.031ms returns TRUE
T4158 061:956.678 JLINK_ReadReg(R15 (PC))
T4158 061:956.748 - 0.112ms returns 0x0800DA8C
T4158 061:956.776 JLINK_ReadReg(XPSR)
T4158 061:956.794 - 0.029ms returns 0x21000000
T4158 061:956.856 JLINK_ClrBPEx(BPHandle = 0x00000009)
T4158 061:956.937 - 0.117ms returns 0x00
T4158 061:956.992 JLINK_ClrBPEx(BPHandle = 0x0000000A)
T4158 061:957.025 - 0.039ms returns 0x00
T4158 061:957.039 JLINK_ClrBPEx(BPHandle = 0x0000000B)
T4158 061:957.051 - 0.016ms returns 0x00
T4158 061:957.062 JLINK_ClrBPEx(BPHandle = 0x0000000C)
T4158 061:957.072 - 0.014ms returns 0x00
T4158 061:957.085 JLINK_ClrBPEx(BPHandle = 0x0000000D)
T4158 061:957.209 - 0.151ms returns 0x00
T4158 061:957.259 JLINK_ReadMemU32(0xE000ED30, 0x0001 Items, ...)
T4158 061:957.366    -- CPU_ReadMem(4 bytes @ 0xE000ED30)
T4158 061:958.726   Data:  02 00 00 00
T4158 061:958.980 - 1.728ms returns 1
T4158 061:959.022 JLINK_ReadMemU32(0xE0001028, 0x0001 Items, ...)
T4158 061:959.147    -- CPU_ReadMem(4 bytes @ 0xE0001028)
T4158 061:960.647   Data:  00 00 00 00
T4158 061:960.730    - DWT_FUNC[0]
T4158 061:960.741 - 1.722ms returns 1
T4158 061:960.755 JLINK_ReadMemU32(0xE0001038, 0x0001 Items, ...)
T4158 061:960.787    -- CPU_ReadMem(4 bytes @ 0xE0001038)
T4158 061:961.521   Data:  00 02 00 00
T4158 061:961.541    - DWT_FUNC[1]
T4158 061:961.551 - 0.799ms returns 1
T4158 061:961.561 JLINK_ReadMemU32(0xE0001048, 0x0001 Items, ...)
T4158 061:961.585    -- CPU_ReadMem(4 bytes @ 0xE0001048)
T4158 061:962.129   Data:  00 00 00 00
T4158 061:962.155    - DWT_FUNC[2]
T4158 061:962.165 - 0.608ms returns 1
T4158 061:962.175 JLINK_ReadMemU32(0xE0001058, 0x0001 Items, ...)
T4158 061:962.199    -- CPU_ReadMem(4 bytes @ 0xE0001058)
T4158 061:962.774   Data:  00 00 00 00
T4158 061:962.791    - DWT_FUNC[3]
T4158 061:962.800 - 0.628ms returns 1
T4158 061:962.886 JLINK_ReadReg(R0)
T4158 061:962.896 - 0.014ms returns 0x00000001
T4158 061:962.904 JLINK_ReadReg(R1)
T4158 061:962.911 - 0.010ms returns 0x20000250
T4158 061:962.919 JLINK_ReadReg(R2)
T4158 061:962.926 - 0.010ms returns 0x00400000
T4158 061:962.933 JLINK_ReadReg(R3)
T4158 061:962.940 - 0.010ms returns 0x00400000
T4158 061:962.947 JLINK_ReadReg(R4)
T4158 061:962.954 - 0.010ms returns 0x00000000
T4158 061:962.961 JLINK_ReadReg(R5)
T4158 061:962.968 - 0.010ms returns 0x05050505
T4158 061:962.976 JLINK_ReadReg(R6)
T4158 061:962.982 - 0.010ms returns 0x06060606
T4158 061:962.990 JLINK_ReadReg(R7)
T4158 061:962.996 - 0.010ms returns 0x07070707
T4158 061:963.004 JLINK_ReadReg(R8)
T4158 061:963.011 - 0.010ms returns 0x08080808
T4158 061:963.018 JLINK_ReadReg(R9)
T4158 061:963.025 - 0.010ms returns 0x09090909
T4158 061:963.032 JLINK_ReadReg(R10)
T4158 061:963.039 - 0.010ms returns 0x10101010
T4158 061:963.046 JLINK_ReadReg(R11)
T4158 061:963.053 - 0.010ms returns 0x11111111
T4158 061:963.060 JLINK_ReadReg(R12)
T4158 061:963.067 - 0.012ms returns 0x08022B3D
T4158 061:963.094 JLINK_ReadReg(R13 (SP))
T4158 061:963.102 - 0.011ms returns 0x20000C78
T4158 061:963.110 JLINK_ReadReg(R14)
T4158 061:963.118 - 0.011ms returns 0x0800FB7B
T4158 061:963.125 JLINK_ReadReg(R15 (PC))
T4158 061:963.133 - 0.023ms returns 0x0800DA8C
T4158 061:963.153 JLINK_ReadReg(XPSR)
T4158 061:963.160 - 0.010ms returns 0x21000000
T4158 061:963.168 JLINK_ReadReg(MSP)
T4158 061:963.174 - 0.010ms returns 0x20003060
T4158 061:963.182 JLINK_ReadReg(PSP)
T4158 061:963.188 - 0.010ms returns 0x20000C78
T4158 061:963.196 JLINK_ReadReg(CFBP)
T4158 061:963.202 - 0.010ms returns 0x02000000
T4158 061:963.210 JLINK_ReadReg(FPSCR)
T4158 061:967.889 - 4.704ms returns 0x00000000
T4158 061:967.923 JLINK_ReadReg(FPS0)
T4158 061:967.934 - 0.015ms returns 0x00000000
T4158 061:967.943 JLINK_ReadReg(FPS1)
T4158 061:967.950 - 0.011ms returns 0x00000000
T4158 061:967.958 JLINK_ReadReg(FPS2)
T4158 061:967.966 - 0.010ms returns 0x00000000
T4158 061:967.973 JLINK_ReadReg(FPS3)
T4158 061:967.981 - 0.010ms returns 0x00000000
T4158 061:967.989 JLINK_ReadReg(FPS4)
T4158 061:967.996 - 0.011ms returns 0x00000000
T4158 061:968.004 JLINK_ReadReg(FPS5)
T4158 061:968.011 - 0.010ms returns 0x00000000
T4158 061:968.019 JLINK_ReadReg(FPS6)
T4158 061:968.026 - 0.011ms returns 0x00000000
T4158 061:968.034 JLINK_ReadReg(FPS7)
T4158 061:968.042 - 0.010ms returns 0x00000000
T4158 061:968.050 JLINK_ReadReg(FPS8)
T4158 061:968.058 - 0.016ms returns 0x00000000
T4158 061:968.072 JLINK_ReadReg(FPS9)
T4158 061:968.083 - 0.016ms returns 0x00000000
T4158 061:968.093 JLINK_ReadReg(FPS10)
T4158 061:968.104 - 0.016ms returns 0x00000000
T4158 061:968.114 JLINK_ReadReg(FPS11)
T4158 061:968.122 - 0.011ms returns 0x00000000
T4158 061:968.130 JLINK_ReadReg(FPS12)
T4158 061:968.137 - 0.010ms returns 0x00000000
T4158 061:968.145 JLINK_ReadReg(FPS13)
T4158 061:968.153 - 0.012ms returns 0x00000000
T4158 061:968.162 JLINK_ReadReg(FPS14)
T4158 061:968.172 - 0.013ms returns 0x00000000
T4158 061:968.182 JLINK_ReadReg(FPS15)
T4158 061:968.192 - 0.013ms returns 0x00000000
T4158 061:968.200 JLINK_ReadReg(FPS16)
T4158 061:968.208 - 0.012ms returns 0x00000000
T4158 061:968.217 JLINK_ReadReg(FPS17)
T4158 061:968.225 - 0.012ms returns 0x00000000
T4158 061:968.234 JLINK_ReadReg(FPS18)
T4158 061:968.242 - 0.012ms returns 0x00000000
T4158 061:968.252 JLINK_ReadReg(FPS19)
T4158 061:968.260 - 0.012ms returns 0x00000000
T4158 061:968.271 JLINK_ReadReg(FPS20)
T4158 061:968.280 - 0.014ms returns 0x00000000
T4158 061:968.291 JLINK_ReadReg(FPS21)
T4158 061:968.301 - 0.014ms returns 0x00000000
T4158 061:968.311 JLINK_ReadReg(FPS22)
T4158 061:968.331 - 0.026ms returns 0x00000000
T4158 061:968.346 JLINK_ReadReg(FPS23)
T4158 061:968.358 - 0.030ms returns 0x00000000
T4158 061:968.394 JLINK_ReadReg(FPS24)
T4158 061:968.401 - 0.011ms returns 0x00000000
T4158 061:968.409 JLINK_ReadReg(FPS25)
T4158 061:968.417 - 0.010ms returns 0x00000000
T4158 061:968.424 JLINK_ReadReg(FPS26)
T4158 061:968.432 - 0.010ms returns 0x00000000
T4158 061:968.440 JLINK_ReadReg(FPS27)
T4158 061:968.447 - 0.010ms returns 0x00000000
T4158 061:968.455 JLINK_ReadReg(FPS28)
T4158 061:968.462 - 0.010ms returns 0x00000000
T4158 061:968.470 JLINK_ReadReg(FPS29)
T4158 061:968.477 - 0.010ms returns 0x00000000
T4158 061:968.485 JLINK_ReadReg(FPS30)
T4158 061:968.492 - 0.010ms returns 0x00000000
T4158 061:968.500 JLINK_ReadReg(FPS31)
T4158 061:968.507 - 0.010ms returns 0x00000000
T0828 061:979.216   JLINK_ReadMemEx(0x0800DA8C, 0x003C Bytes, ..., Flags = 0x02000000)
T0828 061:979.270    -- CPU_ReadMem(128 bytes @ 0x0800DA80)
T0828 061:981.272    -- Updating C cache (128 bytes @ 0x0800DA80)
T0828 061:981.327    -- Read from C cache (60 bytes @ 0x0800DA8C)
T0828 061:981.339   Data:  07 A1 09 A0 02 F0 24 F8 03 E0 05 A1 10 A0 02 F0 ...
T0828 061:981.348 - 2.136ms returns 0x3C
T0828 061:981.360   JLINK_ReadMemEx(0x0800DA8C, 0x0002 Bytes, ..., Flags = 0x02000000)
T0828 061:981.372    -- Read from C cache (2 bytes @ 0x0800DA8C)
T0828 061:981.381   Data:  07 A1
T0828 061:981.391 - 0.034ms returns 0x02
T0828 061:981.400   JLINK_ReadMemEx(0x0800DA8E, 0x0002 Bytes, ..., Flags = 0x02000000)
T0828 061:981.410    -- Read from C cache (2 bytes @ 0x0800DA8E)
T0828 061:981.419   Data:  09 A0
T0828 061:981.428 - 0.031ms returns 0x02
T0828 061:981.448   JLINK_ReadMemEx(0x0800DA8E, 0x0002 Bytes, ..., Flags = 0x02000000)
T0828 061:981.459    -- Read from C cache (2 bytes @ 0x0800DA8E)
T0828 061:981.468   Data:  09 A0
T0828 061:981.477 - 0.032ms returns 0x02
T0828 061:981.485   JLINK_ReadMemEx(0x0800DA90, 0x003C Bytes, ..., Flags = 0x02000000)
T0828 061:981.494    -- Read from C cache (60 bytes @ 0x0800DA90)
T0828 061:981.504   Data:  02 F0 24 F8 03 E0 05 A1 10 A0 02 F0 1F F8 18 48 ...
T0828 061:981.513 - 0.032ms returns 0x3C
T0828 061:981.521   JLINK_ReadMemEx(0x0800DA90, 0x0002 Bytes, ..., Flags = 0x02000000)
T0828 061:981.530    -- Read from C cache (2 bytes @ 0x0800DA90)
T0828 061:981.539   Data:  02 F0
T0828 061:981.549 - 0.031ms returns 0x02
T0828 067:799.820   JLINK_ReadMemEx(0x08022C0C, 0x003C Bytes, ..., Flags = 0x02000000)
T0828 067:799.872    -- CPU_ReadMem(128 bytes @ 0x08022C00)
T0828 067:801.717    -- Updating C cache (128 bytes @ 0x08022C00)
T0828 067:801.840    -- Read from C cache (60 bytes @ 0x08022C0C)
T0828 067:801.852   Data:  EA F7 26 FF 00 22 0F A1 68 46 ED F7 49 FD 04 46 ...
T0828 067:801.862 - 2.047ms returns 0x3C
T0828 067:801.872   JLINK_ReadMemEx(0x08022C0C, 0x0002 Bytes, ..., Flags = 0x02000000)
T0828 067:801.884    -- Read from C cache (2 bytes @ 0x08022C0C)
T0828 067:801.894   Data:  EA F7
T0828 067:801.904 - 0.035ms returns 0x02
T0828 067:801.913   JLINK_ReadMemEx(0x08022C0E, 0x0002 Bytes, ..., Flags = 0x02000000)
T0828 067:801.924    -- Read from C cache (2 bytes @ 0x08022C0E)
T0828 067:801.933   Data:  26 FF
T0828 067:801.944 - 0.034ms returns 0x02
T4158 069:991.424   JLINK_ReadMemEx(0x0800DA8C, 0x0002 Bytes, ..., Flags = 0x02000000)
T4158 069:991.498    -- Read from C cache (2 bytes @ 0x0800DA8C)
T4158 069:991.508   Data:  07 A1
T4158 069:991.518 - 0.098ms returns 0x02
T4158 069:991.531   JLINK_SetBPEx(Addr = 0x0801940E, Type = 0xFFFFFFF2)
T4158 069:991.544 - 0.017ms returns 0x0000000E
T4158 069:991.553   JLINK_SetBPEx(Addr = 0x08022C0C, Type = 0xFFFFFFF2)
T4158 069:991.563 - 0.013ms returns 0x0000000F
T4158 069:991.572   JLINK_SetBPEx(Addr = 0x08022C10, Type = 0xFFFFFFF2)
T4158 069:991.581 - 0.013ms returns 0x00000010
T4158 069:991.591 JLINK_Go()
T4158 069:992.535    -- CPU_WriteMem(4 bytes @ 0xE0002000)
T4158 069:993.157    -- CPU_WriteMem(4 bytes @ 0xE0002000)
T4158 069:993.941    -- CPU_WriteMem(4 bytes @ 0xE0002000)
T4158 069:995.196    -- CPU_ReadMem(4 bytes @ 0xE0001000)
T4158 069:996.526    -- CPU_WriteMem(4 bytes @ 0xE0002008)
T4158 069:996.752    -- CPU_WriteMem(4 bytes @ 0xE000200C)
T4158 069:996.774    -- CPU_WriteMem(4 bytes @ 0xE0002010)
T4158 069:996.792    -- CPU_WriteMem(4 bytes @ 0xE0002014)
T4158 069:996.830    -- CPU_WriteMem(4 bytes @ 0xE0002018)
T4158 070:000.621 - 9.223ms
T4158 070:101.412 JLINK_IsHalted()
T4158 070:104.834 - 3.479ms returns TRUE
T4158 070:104.901 JLINK_Halt()
T4158 070:104.908 - 0.010ms returns 0x00
T4158 070:104.916 JLINK_IsHalted()
T4158 070:104.922 - 0.009ms returns TRUE
T4158 070:104.930 JLINK_IsHalted()
T4158 070:104.936 - 0.009ms returns TRUE
T4158 070:104.943 JLINK_IsHalted()
T4158 070:104.950 - 0.009ms returns TRUE
T4158 070:104.959 JLINK_ReadReg(R15 (PC))
T4158 070:104.967 - 0.012ms returns 0x08022C10
T4158 070:104.975 JLINK_ReadReg(XPSR)
T4158 070:104.982 - 0.010ms returns 0x41000000
T4158 070:104.994 JLINK_ClrBPEx(BPHandle = 0x0000000E)
T4158 070:105.002 - 0.010ms returns 0x00
T4158 070:105.010 JLINK_ClrBPEx(BPHandle = 0x0000000F)
T4158 070:105.017 - 0.010ms returns 0x00
T4158 070:105.025 JLINK_ClrBPEx(BPHandle = 0x00000010)
T4158 070:105.032 - 0.010ms returns 0x00
T4158 070:105.041 JLINK_ReadMemU32(0xE000ED30, 0x0001 Items, ...)
T4158 070:105.053    -- CPU_ReadMem(4 bytes @ 0xE000ED30)
T4158 070:105.671   Data:  02 00 00 00
T4158 070:105.718 - 0.680ms returns 1
T4158 070:105.728 JLINK_ReadMemU32(0xE0001028, 0x0001 Items, ...)
T4158 070:105.741    -- CPU_ReadMem(4 bytes @ 0xE0001028)
T4158 070:106.929   Data:  00 00 00 00
T4158 070:106.964    - DWT_FUNC[0]
T4158 070:106.973 - 1.248ms returns 1
T4158 070:106.987 JLINK_ReadMemU32(0xE0001038, 0x0001 Items, ...)
T4158 070:107.002    -- CPU_ReadMem(4 bytes @ 0xE0001038)
